
**** 12/29/21 23:21:38 ******* PSpice Lite (March 2016) ******* ID# 10813 ****

 ** Profile: "SCHEMATIC1-fds"  [ C:\Users\ADMIN\Desktop\b2\b2-PSpiceFiles\SCHEMATIC1\fds.sim ] 


 ****     CIRCUIT DESCRIPTION


******************************************************************************




** Creating circuit file "fds.cir" 
** WARNING: THIS AUTOMATICALLY GENERATED FILE MAY BE OVERWRITTEN BY SUBSEQUENT SIMULATIONS

*Libraries: 
* Profile Libraries :
* Local Libraries :
* From [PSPICE NETLIST] section of C:\Users\ADMIN\AppData\Roaming\SPB_Data\cdssetup\OrCAD_PSpice\17.2.0\PSpice.ini file:
.lib "nomd.lib" 

*Analysis directives: 
.TRAN  0 22 0 
.OPTIONS ADVCONV
.PROBE64 V(alias(*)) I(alias(*)) W(alias(*)) D(alias(*)) NOISE(alias(*)) 
.INC "..\SCHEMATIC1.net" 



**** INCLUDING SCHEMATIC1.net ****
* source B2
V_V1         N00172 0 10Vdc
R_R1         N00172 N00179  1k TC=0,0 
R_R2         0 N00179  2k TC=0,0 
R_R3         0 N00179  4k TC=0,0 
L_L1         N00183 N00179  1mH IC=0 
X_U1         0 N00183 Sw_tClose PARAMS: tClose=5 ttran=1u Rclosed=0.01
+  Ropen=10000Meg

**** RESUMING fds.cir ****
.END

**** 12/29/21 23:21:38 ******* PSpice Lite (March 2016) ******* ID# 10813 ****

 ** Profile: "SCHEMATIC1-fds"  [ C:\Users\ADMIN\Desktop\b2\b2-PSpiceFiles\SCHEMATIC1\fds.sim ] 


 ****     Voltage Controlled Switch MODEL PARAMETERS


******************************************************************************




               X_U1.Smod       
         RON     .01         
        ROFF   10.000000E+09 
         VON    1            
        VOFF    0            


**** 12/29/21 23:21:38 ******* PSpice Lite (March 2016) ******* ID# 10813 ****

 ** Profile: "SCHEMATIC1-fds"  [ C:\Users\ADMIN\Desktop\b2\b2-PSpiceFiles\SCHEMATIC1\fds.sim ] 


 ****     INITIAL TRANSIENT SOLUTION       TEMPERATURE =   27.000 DEG C


******************************************************************************



 NODE   VOLTAGE     NODE   VOLTAGE     NODE   VOLTAGE     NODE   VOLTAGE


(N00172)   10.0000 (N00179)    5.7143 (N00183)    5.1948 (X_U1.3)    0.0000 




    VOLTAGE SOURCE CURRENTS
    NAME         CURRENT

    V_V1        -4.286E-03
    X_U1.V1      0.000E+00

    TOTAL POWER DISSIPATION   4.29E-02  WATTS



          JOB CONCLUDED

**** 12/29/21 23:21:38 ******* PSpice Lite (March 2016) ******* ID# 10813 ****

 ** Profile: "SCHEMATIC1-fds"  [ C:\Users\ADMIN\Desktop\b2\b2-PSpiceFiles\SCHEMATIC1\fds.sim ] 


 ****     JOB STATISTICS SUMMARY


******************************************************************************



  Total job time (using Solver 1)   =         .03
